Freq.	V(n001)
1.00000000000000e+004	(-5.39792066934758e+001dB,-9.01194268951294e+001°)
1.02329299228075e+004	(-5.37791626164495e+001dB,-9.01222092940149e+001°)
1.04712854805090e+004	(-5.35791164619246e+001dB,-9.01250565455824e+001°)
1.07151930523761e+004	(-5.33790681319520e+001dB,-9.01279701633362e+001°)
1.09647819614318e+004	(-5.31790175239753e+001dB,-9.01309516963237e+001°)
1.12201845430196e+004	(-5.29789645306230e+001dB,-9.01340027300727e+001°)
1.14815362149688e+004	(-5.27789090394288e+001dB,-9.01371248870301e+001°)
1.17489755493953e+004	(-5.25788509326338e+001dB,-9.01403198277773e+001°)
1.20226443461741e+004	(-5.23787900869576e+001dB,-9.01435892521314e+001°)
1.23026877081238e+004	(-5.21787263732945e+001dB,-9.01469348997243e+001°)
1.25892541179417e+004	(-5.19786596563765e+001dB,-9.01503585503600e+001°)
1.28824955169313e+004	(-5.17785897946945e+001dB,-9.01538620269000e+001°)
1.31825673855641e+004	(-5.15785166399368e+001dB,-9.01574471938647e+001°)
1.34896288259165e+004	(-5.13784400368823e+001dB,-9.01611159604013e+001°)
1.38038426460288e+004	(-5.11783598229143e+001dB,-9.01648702798292e+001°)
1.41253754462275e+004	(-5.09782758278416e+001dB,-9.01687121523752e+001°)
1.44543977074593e+004	(-5.07781878733281e+001dB,-9.01726436241572e+001°)
1.47910838816821e+004	(-5.05780957727427e+001dB,-9.01766667906869e+001°)
1.51356124843621e+004	(-5.03779993305960e+001dB,-9.01807837963027e+001°)
1.54881661891248e+004	(-5.01778983421451e+001dB,-9.01849968355342e+001°)
1.58489319246111e+004	(-4.99777925930415e+001dB,-9.01893081552581e+001°)
1.62181009735893e+004	(-4.97776818588126e+001dB,-9.01937200552687e+001°)
1.65958690743756e+004	(-4.95775659043841e+001dB,-9.01982348895482e+001°)
1.69824365246174e+004	(-4.93774444836108e+001dB,-9.02028550679636e+001°)
1.73780082874937e+004	(-4.91773173386801e+001dB,-9.02075830567087e+001°)
1.77827941003892e+004	(-4.89771841996672e+001dB,-9.02124213809889e+001°)
1.81970085860998e+004	(-4.87770447839080e+001dB,-9.02173726258195e+001°)
1.86208713666287e+004	(-4.85768987953771e+001dB,-9.02224394372018e+001°)
1.90546071796325e+004	(-4.83767459240879e+001dB,-9.02276245240323e+001°)
1.94984459975804e+004	(-4.81765858453806e+001dB,-9.02329306589093e+001°)
1.99526231496888e+004	(-4.79764182194069e+001dB,-9.02383606822636e+001°)
2.04173794466953e+004	(-4.77762426900735e+001dB,-9.02439174991711e+001°)
2.08929613085404e+004	(-4.75760588846570e+001dB,-9.02496040864887e+001°)
2.13796208950223e+004	(-4.73758664127286e+001dB,-9.02554234904253e+001°)
2.18776162394955e+004	(-4.71756648655087e+001dB,-9.02613788311599e+001°)
2.23872113856834e+004	(-4.69754538147869e+001dB,-9.02674733013524e+001°)
2.29086765276777e+004	(-4.67752328122789e+001dB,-9.02737101723692e+001°)
2.34422881531992e+004	(-4.65750013884198e+001dB,-9.02800927921389e+001°)
2.39883291901949e+004	(-4.63747590515388e+001dB,-9.02866245900663e+001°)
2.45470891568503e+004	(-4.61745052866844e+001dB,-9.02933090769351e+001°)
2.51188643150958e+004	(-4.59742395545970e+001dB,-9.03001498482454e+001°)
2.57039578276886e+004	(-4.57739612905464e+001dB,-9.03071505862063e+001°)
2.63026799189538e+004	(-4.55736699031141e+001dB,-9.03143150617673e+001°)
2.69153480392691e+004	(-4.53733647729285e+001dB,-9.03216471368969e+001°)
2.75422870333816e+004	(-4.51730452512987e+001dB,-9.03291507660770e+001°)
2.81838293126445e+004	(-4.49727106589511e+001dB,-9.03368300012335e+001°)
2.88403150312660e+004	(-4.47723602844498e+001dB,-9.03446889917519e+001°)
2.95120922666638e+004	(-4.45719933827151e+001dB,-9.03527319878570e+001°)
3.01995172040201e+004	(-4.43716091734160e+001dB,-9.03609633430271e+001°)
3.09029543251359e+004	(-4.41712068393602e+001dB,-9.03693875181287e+001°)
3.16227766016837e+004	(-4.39707855245952e+001dB,-9.03780090809504e+001°)
3.23593656929628e+004	(-4.37703443328113e+001dB,-9.03868327146096e+001°)
3.31131121482591e+004	(-4.35698823251252e+001dB,-9.03958632137900e+001°)
3.38844156139202e+004	(-4.33693985183234e+001dB,-9.04051054939817e+001°)
3.46736850452531e+004	(-4.31688918825820e+001dB,-9.04145645907240e+001°)
3.54813389233575e+004	(-4.29683613392932e+001dB,-9.04242456638641e+001°)
3.63078054770101e+004	(-4.27678057588270e+001dB,-9.04341540031909e+001°)
3.71535229097172e+004	(-4.25672239579524e+001dB,-9.04442950281842e+001°)
3.80189396320560e+004	(-4.23666146973701e+001dB,-9.04546742938005e+001°)
3.89045144994280e+004	(-4.21659766791127e+001dB,-9.04652974964034e+001°)
3.98107170553496e+004	(-4.19653085435650e+001dB,-9.04761704727367e+001°)
4.07380277804112e+004	(-4.17646088666834e+001dB,-9.04872992084073e+001°)
4.16869383470335e+004	(-4.15638761568540e+001dB,-9.04986898403831e+001°)
4.26579518801592e+004	(-4.13631088516225e+001dB,-9.05103486600555e+001°)
4.36515832240165e+004	(-4.11623053144240e+001dB,-9.05222821213396e+001°)
4.46683592150962e+004	(-4.09614638308885e+001dB,-9.05344968408232e+001°)
4.57088189614874e+004	(-4.07605826052759e+001dB,-9.05469996076876e+001°)
4.67735141287197e+004	(-4.05596597564483e+001dB,-9.05597973847771e+001°)
4.78630092322637e+004	(-4.03586933138306e+001dB,-9.05728973155750e+001°)
4.89778819368445e+004	(-4.01576812131386e+001dB,-9.05863067305033e+001°)
5.01187233627271e+004	(-3.99566212917942e+001dB,-9.06000331496773e+001°)
5.12861383991363e+004	(-3.97555112843288e+001dB,-9.06140842934052e+001°)
5.24807460249771e+004	(-3.95543488173461e+001dB,-9.06284680854674e+001°)
5.37031796370251e+004	(-3.93531314042941e+001dB,-9.06431926582990e+001°)
5.49540873857623e+004	(-3.91518564400965e+001dB,-9.06582663629570e+001°)
5.62341325190347e+004	(-3.89505211954516e+001dB,-9.06736977772269e+001°)
5.75439937337155e+004	(-3.87491228106729e+001dB,-9.06894957066028e+001°)
5.88843655355587e+004	(-3.85476582895644e+001dB,-9.07056691992743e+001°)
6.02559586074356e+004	(-3.83461244926929e+001dB,-9.07222275494443e+001°)
6.16595001861480e+004	(-3.81445181304970e+001dB,-9.07391803079736e+001°)
6.30957344480191e+004	(-3.79428357559987e+001dB,-9.07565372912918e+001°)
6.45654229034654e+004	(-3.77410737571085e+001dB,-9.07743085887326e+001°)
6.60693448007594e+004	(-3.75392283486724e+001dB,-9.07925045761833e+001°)
6.76082975391980e+004	(-3.73372955639276e+001dB,-9.08111359213360e+001°)
6.91830970918934e+004	(-3.71352712456887e+001dB,-9.08302135967730e+001°)
7.07945784384136e+004	(-3.69331510371179e+001dB,-9.08497488955936e+001°)
7.24435960074988e+004	(-3.67309303717408e+001dB,-9.08697534330481e+001°)
7.41310241300915e+004	(-3.65286044633721e+001dB,-9.08902391697566e+001°)
7.58577575029181e+004	(-3.63261682951711e+001dB,-9.09112184177034e+001°)
7.76247116628689e+004	(-3.61236166083119e+001dB,-9.09327038555370e+001°)
7.94328234724279e+004	(-3.59209438901005e+001dB,-9.09547085466868e+001°)
8.12830516164096e+004	(-3.57181443613399e+001dB,-9.09772459505775e+001°)
8.31763771102668e+004	(-3.55152119631804e+001dB,-9.10003299424879e+001°)
8.51138038202373e+004	(-3.53121403430734e+001dB,-9.10239748216064e+001°)
8.70963589956077e+004	(-3.51089228404087e+001dB,-9.10481953451828e+001°)
8.91250938133742e+004	(-3.49055524708382e+001dB,-9.10730067299871e+001°)
9.12010839355906e+004	(-3.47020219103249e+001dB,-9.10984246885056e+001°)
9.33254300796988e+004	(-3.44983234778916e+001dB,-9.11244654381430e+001°)
9.54992586021432e+004	(-3.42944491177363e+001dB,-9.11511457292439e+001°)
9.77237220955807e+004	(-3.40903903803121e+001dB,-9.11784828699527e+001°)
9.99999999999996e+004	(-3.38861384023472e+001dB,-9.12064947495311e+001°)
1.02329299228075e+005	(-3.36816838858292e+001dB,-9.12351998661211e+001°)
1.04712854805090e+005	(-3.34770170758342e+001dB,-9.12646173554901e+001°)
1.07151930523760e+005	(-3.32721277371977e+001dB,-9.12947670257742e+001°)
1.09647819614318e+005	(-3.30670051297489e+001dB,-9.13256693827878e+001°)
1.12201845430196e+005	(-3.28616379823183e+001dB,-9.13573456677662e+001°)
1.14815362149688e+005	(-3.26560144653007e+001dB,-9.13898178987727e+001°)
1.17489755493952e+005	(-3.24501221615846e+001dB,-9.14231089069011e+001°)
1.20226443461741e+005	(-3.22439480358360e+001dB,-9.14572423746451e+001°)
1.23026877081238e+005	(-3.20374784021449e+001dB,-9.14922428862381e+001°)
1.25892541179416e+005	(-3.18306988897668e+001dB,-9.15281359779417e+001°)
1.28824955169313e+005	(-3.16235944067886e+001dB,-9.15649481828770e+001°)
1.31825673855640e+005	(-3.14161491018072e+001dB,-9.16027070909346e+001°)
1.34896288259165e+005	(-3.12083463233213e+001dB,-9.16414414101558e+001°)
1.38038426460288e+005	(-3.10001685765754e+001dB,-9.16811810185689e+001°)
1.41253754462275e+005	(-3.07915974781403e+001dB,-9.17219570512539e+001°)
1.44543977074592e+005	(-3.05826137073768e+001dB,-9.17638019564922e+001°)
1.47910838816820e+005	(-3.03731969552864e+001dB,-9.18067495910632e+001°)
1.51356124843620e+005	(-3.01633258698176e+001dB,-9.18508352808923e+001°)
1.54881661891247e+005	(-2.99529779982960e+001dB,-9.18960959422655e+001°)
1.58489319246111e+005	(-2.97421297257274e+001dB,-9.19425701568484e+001°)
1.62181009735892e+005	(-2.95307562095696e+001dB,-9.19902982946772e+001°)
1.65958690743755e+005	(-2.93188313100100e+001dB,-9.20393226112216e+001°)
1.69824365246174e+005	(-2.91063275160803e+001dB,-9.20896873943218e+001°)
1.73780082874937e+005	(-2.88932158665039e+001dB,-9.21414390720791e+001°)
1.77827941003891e+005	(-2.86794658657963e+001dB,-9.21946263917937e+001°)
1.81970085860998e+005	(-2.84650453941161e+001dB,-9.22493005361297e+001°)
1.86208713666286e+005	(-2.82499206116478e+001dB,-9.23055153329160e+001°)
1.90546071796324e+005	(-2.80340558559599e+001dB,-9.23633274260126e+001°)
1.94984459975804e+005	(-2.78174135322343e+001dB,-9.24227964631689e+001°)
1.99526231496887e+005	(-2.75999539961128e+001dB,-9.24839853511038e+001°)
2.04173794466952e+005	(-2.73816354276153e+001dB,-9.25469604582467e+001°)
2.08929613085403e+005	(-2.71624136963873e+001dB,-9.26117919028679e+001°)
2.13796208950222e+005	(-2.69422422167763e+001dB,-9.26785538313924e+001°)
2.18776162394954e+005	(-2.67210717921470e+001dB,-9.27473247311787e+001°)
2.23872113856833e+005	(-2.64988504474086e+001dB,-9.28181877730341e+001°)
2.29086765276776e+005	(-2.62755232486686e+001dB,-9.28912311867972e+001°)
2.34422881531991e+005	(-2.60510321088994e+001dB,-9.29665486891551e+001°)
2.39883291901948e+005	(-2.58253155779967e+001dB,-9.30442399213738e+001°)
2.45470891568502e+005	(-2.55983086160665e+001dB,-9.31244109525800e+001°)
2.51188643150957e+005	(-2.53699423481889e+001dB,-9.32071748412851e+001°)
2.57039578276885e+005	(-2.51401437987252e+001dB,-9.32926522476452e+001°)
2.63026799189537e+005	(-2.49088356030650e+001dB,-9.33809720955362e+001°)
2.69153480392690e+005	(-2.46759356946990e+001dB,-9.34722723303243e+001°)
2.75422870333815e+005	(-2.44413569648541e+001dB,-9.35667007536760e+001°)
2.81838293126444e+005	(-2.42050068917720e+001dB,-9.36644159473651e+001°)
2.88403150312659e+005	(-2.39667871363205e+001dB,-9.37655882975676e+001°)
2.95120922666637e+005	(-2.37265931003058e+001dB,-9.38704011504992e+001°)
3.01995172040200e+005	(-2.34843134431972e+001dB,-9.39790521027121e+001°)
3.09029543251358e+005	(-2.32398295524447e+001dB,-9.40917544394496e+001°)
3.16227766016836e+005	(-2.29930149620416e+001dB,-9.42087387554393e+001°)
3.23593656929627e+005	(-2.27437347131222e+001dB,-9.43302547822890e+001°)
3.31131121482589e+005	(-2.24918446494453e+001dB,-9.44565734330947e+001°)
3.38844156139201e+005	(-2.22371906400255e+001dB,-9.45879891621042e+001°)
3.46736850452530e+005	(-2.19796077190807e+001dB,-9.47248225741318e+001°)
3.54813389233574e+005	(-2.17189191332867e+001dB,-9.48674234465514e+001°)
3.63078054770099e+005	(-2.14549352836523e+001dB,-9.50161741458526e+001°)
3.71535229097171e+005	(-2.11874525479362e+001dB,-9.51714935162119e+001°)
3.80189396320559e+005	(-2.09162519677552e+001dB,-9.53338414276363e+001°)
3.89045144994279e+005	(-2.06410977801150e+001dB,-9.55037238554794e+001°)
3.98107170553495e+005	(-2.03617357728355e+001dB,-9.56816989087288e+001°)
4.07380277804111e+005	(-2.00778914364430e+001dB,-9.58683836791719e+001°)
4.16869383470333e+005	(-1.97892678832282e+001dB,-9.60644622692920e+001°)
4.26579518801590e+005	(-1.94955434973221e+001dB,-9.62706951235831e+001°)
4.36515832240164e+005	(-1.91963692743863e+001dB,-9.64879300266564e+001°)
4.46683592150961e+005	(-1.88913657998809e+001dB,-9.67171148654503e+001°)
4.57088189614873e+005	(-1.85801198094922e+001dB,-9.69593129419783e+001°)
4.67735141287196e+005	(-1.82621802590589e+001dB,-9.72157209172347e+001°)
4.78630092322636e+005	(-1.79370538224732e+001dB,-9.74876903155721e+001°)
4.89778819368444e+005	(-1.76041997175243e+001dB,-9.77767533264032e+001°)
5.01187233627270e+005	(-1.72630237386849e+001dB,-9.80846537329307e+001°)
5.12861383991362e+005	(-1.69128713553014e+001dB,-9.84133845544839e+001°)
5.24807460249770e+005	(-1.65530197001133e+001dB,-9.87652337944568e+001°)
5.37031796370250e+005	(-1.61826682414560e+001dB,-9.91428406781071e+001°)
5.49540873857621e+005	(-1.58009278850854e+001dB,-9.95492649030586e+001°)
5.62341325190346e+005	(-1.54068082072312e+001dB,-9.99880730533341e+001°)
5.75439937337154e+005	(-1.49992024514083e+001dB,-1.00463446639205e+002°)
5.88843655355586e+005	(-1.45768698608366e+001dB,-1.00980318788792e+002°)
6.02559586074354e+005	(-1.41384148376041e+001dB,-1.01544548465744e+002°)
6.16595001861479e+005	(-1.36822623438235e+001dB,-1.02163144480156e+002°)
6.30957344480189e+005	(-1.32066289030707e+001dB,-1.02844556626951e+002°)
6.45654229034652e+005	(-1.27094885434629e+001dB,-1.03599057861068e+002°)
6.60693448007592e+005	(-1.21885331235121e+001dB,-1.04439251556362e+002°)
6.76082975391978e+005	(-1.16411268253054e+001dB,-1.05380752788133e+002°)
6.91830970918932e+005	(-1.10642554384010e+001dB,-1.06443114475231e+002°)
7.07945784384134e+005	(-1.04544729180844e+001dB,-1.07651102677938e+002°)
7.24435960074986e+005	(-9.80785157546236e+000dB,-1.09036474875082e+002°)
7.41310241300913e+005	(-9.11995022446921e+000dB,-1.10640490581177e+002°)
7.58577575029179e+005	(-8.38583083009478e+000dB,-1.12517495456627e+002°)
7.76247116628687e+005	(-7.60018714282862e+000dB,-1.14740077013900e+002°)
7.94328234724276e+005	(-6.75771594479839e+000dB,-1.17406488958441e+002°)
8.12830516164094e+005	(-5.85399740497390e+000dB,-1.20651198824605e+002°)
8.31763771102666e+005	(-4.88742050294906e+000dB,-1.24659210883187e+002°)
8.51138038202371e+005	(-3.86318842062470e+000dB,-1.29683160662968e+002°)
8.70963589956075e+005	(-2.80119475942443e+000dB,-1.36055968587765e+002°)
8.91250938133740e+005	(-1.74995710794324e+000dB,-1.44174018916794e+002°)
9.12010839355904e+005	(-8.05645431226198e-001dB,-1.54389289488273e+002°)
9.33254300796985e+005	(-1.20718745032793e-001dB,-1.66726460634162e+002°)
9.54992586021430e+005	(1.37110990113577e-001dB,1.79504460371790e+002°)
9.77237220955804e+005	(-1.11088934935526e-001dB,1.65719588650873e+002°)
9.99999999999993e+005	(-7.89160301961298e-001dB,1.53343990365467e+002°)
1.02329299228075e+006	(-1.73000831302137e+000dB,1.43084071396187e+002°)
1.04712854805089e+006	(-2.78024548965154e+000dB,1.34925573624028e+002°)
1.07151930523760e+006	(-3.84259899006712e+000dB,1.28519543544181e+002°)
1.09647819614318e+006	(-4.86780806753467e+000dB,1.23468986466423e+002°)
1.12201845430196e+006	(-5.83557554515856e+000dB,1.19439410682668e+002°)
1.14815362149688e+006	(-6.74050284026440e+000dB,1.16176691610136e+002°)
1.17489755493952e+006	(-7.58411527659727e+000dB,1.13494667667686e+002°)
1.20226443461740e+006	(-8.37080086690727e+000dB,1.11258030038577e+002°)
1.23026877081237e+006	(-9.10585626560678e+000dB,1.09367926457128e+002°)
1.25892541179416e+006	(-9.79459227901922e+000dB,1.07751343627410e+002°)
1.28824955169313e+006	(-1.04419558533038e+001dB,1.06353630696450e+002°)
1.31825673855640e+006	(-1.10523982378335e+001dB,1.05133306333879e+002°)
1.34896288259164e+006	(-1.16298569062643e+001dB,1.04058449379253e+002°)
1.38038426460288e+006	(-1.21777868244943e+001dB,1.03104170842331e+002°)
1.41253754462274e+006	(-1.26992100807711e+001dB,1.02250823762287e+002°)
1.44543977074592e+006	(-1.31967693450853e+001dB,1.01482719938903e+002°)
1.47910838816820e+006	(-1.36727786582829e+001dB,1.00787197901457e+002°)
1.51356124843620e+006	(-1.41292690601646e+001dB,1.00153937729263e+002°)
1.54881661891247e+006	(-1.45680283697611e+001dB,9.95744508051135e+001°)
1.58489319246110e+006	(-1.49906353499313e+001dB,9.90416956012863e+001°)
1.62181009735892e+006	(-1.53984888036049e+001dB,9.85497851060842e+001°)
1.65958690743755e+006	(-1.57928322428622e+001dB,9.80937615047593e+001°)
1.69824365246173e+006	(-1.61747748039737e+001dB,9.76694212306148e+001°)
1.73780082874936e+006	(-1.65453089709177e+001dB,9.72731776524621e+001°)
1.77827941003891e+006	(-1.69053256230359e+001dB,9.69019524133306e+001°)
1.81970085860997e+006	(-1.72556268448328e+001dB,9.65530887911903e+001°)
1.86208713666285e+006	(-1.75969368566979e+001dB,9.62242820403829e+001°)
1.90546071796323e+006	(-1.79299113717882e+001dB,9.59135229923874e+001°)
1.94984459975803e+006	(-1.82551456261161e+001dB,9.56190520188305e+001°)
1.99526231496887e+006	(-1.85731813077701e+001dB,9.53393213993017e+001°)
2.04173794466951e+006	(-1.88845125341223e+001dB,9.50729641089095e+001°)
2.08929613085402e+006	(-1.91895910443740e+001dB,9.48187680210590e+001°)
2.13796208950222e+006	(-1.94888307102715e+001dB,9.45756542948392e+001°)
2.18776162394954e+006	(-1.97826114795571e+001dB,9.43426593260342e+001°)
2.23872113856832e+006	(-2.00712828207141e+001dB,9.41189194439480e+001°)
2.29086765276776e+006	(-2.03551667559307e+001dB,9.39036580491346e+001°)
2.34422881531990e+006	(-2.06345605259305e+001dB,9.36961746023457e+001°)
2.39883291901947e+006	(-2.09097389426240e+001dB,9.34958352127757e+001°)
2.45470891568501e+006	(-2.11809564808509e+001dB,9.33020646637881e+001°)
2.51188643150956e+006	(-2.14484491226726e+001dB,9.31143394027513e+001°)
2.57039578276884e+006	(-2.17124360141929e+001dB,9.29321816557925e+001°)
2.63026799189536e+006	(-2.19731209295359e+001dB,9.27551541645152e+001°)
2.69153480392689e+006	(-2.22306935896464e+001dB,9.25828557131217e+001°)
2.75422870333814e+006	(-2.24853308423417e+001dB,9.24149171993172e+001°)
2.81838293126443e+006	(-2.27371977201081e+001dB,9.22509981702544e+001°)
2.88403150312658e+006	(-2.29864483980818e+001dB,9.20907838393523e+001°)
2.95120922666636e+006	(-2.32332270522810e+001dB,9.19339823972596e+001°)
3.01995172040199e+006	(-2.34776686387151e+001dB,9.17803226711697e+001°)
3.09029543251357e+006	(-2.37198995994233e+001dB,9.16295520564397e+001°)
3.16227766016835e+006	(-2.39600385042019e+001dB,9.14814346905372e+001°)
3.23593656929626e+006	(-2.41981966287205e+001dB,9.13357497788965e+001°)
3.31131121482588e+006	(-2.44344784891493e+001dB,9.11922901785872e+001°)
3.38844156139200e+006	(-2.46689823230625e+001dB,9.10508610695819e+001°)
3.46736850452529e+006	(-2.49018005320979e+001dB,9.09112787948869e+001°)
3.54813389233573e+006	(-2.51330200866460e+001dB,9.07733698159836e+001°)
3.63078054770098e+006	(-2.53627228968469e+001dB,9.06369697734064e+001°)
3.71535229097170e+006	(-2.55909861540270e+001dB,9.05019226479672e+001°)
3.80189396320558e+006	(-2.58178826412156e+001dB,9.03680799756216e+001°)
3.89045144994277e+006	(-2.60434810216593e+001dB,9.02353001600627e+001°)
3.98107170553494e+006	(-2.62678461076988e+001dB,9.01034478728018e+001°)
4.07380277804109e+006	(-2.64910391012972e+001dB,8.99723934476676e+001°)
4.16869383470332e+006	(-2.67131178223791e+001dB,8.98420123784528e+001°)
4.26579518801589e+006	(-2.69341369203054e+001dB,8.97121848623655e+001°)
4.36515832240162e+006	(-2.71541480636014e+001dB,8.95827953360094e+001°)
4.46683592150959e+006	(-2.73732001229525e+001dB,8.94537321061950e+001°)
4.57088189614871e+006	(-2.75913393386969e+001dB,8.93248869906245e+001°)
4.67735141287194e+006	(-2.78086094718364e+001dB,8.91961549585025e+001°)
4.78630092322634e+006	(-2.80250519530078e+001dB,8.90674338583224e+001°)
4.89778819368442e+006	(-2.82407060135710e+001dB,8.89386241146331e+001°)
5.01187233627268e+006	(-2.84556088123243e+001dB,8.88096284797478e+001°)
