Freq.	V(n002)
Step Information: Rphoto=100K  (Run: 1/10)
1.00000000000000e+005	(4.87944834259295e-005dB,-1.30481262059955e-002°)
1.00925288607668e+005	(5.00649243676694e-005dB,-1.31688596072294e-002°)
1.01859138805412e+005	(5.13589847561188e-005dB,-1.32907101570001e-002°)
1.02801629812647e+005	(5.26771037096424e-005dB,-1.34136881926170e-002°)
1.03752841581801e+005	(5.40197285216579e-005dB,-1.35378041470358e-002°)
1.04712854805090e+005	(5.53873147994800e-005dB,-1.36630685497744e-002°)
1.05681750921366e+005	(5.67803266205210e-005dB,-1.37894920277743e-002°)
1.06659612123026e+005	(5.81992366827046e-005dB,-1.39170853063375e-002°)
1.07646521362984e+005	(5.96445264857374e-005dB,-1.40458592100161e-002°)
1.08642562361707e+005	(6.11166864680209e-005dB,-1.41758246635317e-002°)
1.09647819614319e+005	(6.26162162014216e-005dB,-1.43069926927033e-002°)
1.10662378397767e+005	(6.41436245204667e-005dB,-1.44393744254043e-002°)
1.11686324778056e+005	(6.56994297498992e-005dB,-1.45729810924588e-002°)
1.12719745617551e+005	(6.72841598358008e-005dB,-1.47078240286476e-002°)
1.13762728582343e+005	(6.88983525422865e-005dB,-1.48439146736411e-002°)
1.14815362149688e+005	(7.05425556250556e-005dB,-1.49812645729702e-002°)
1.15877735615513e+005	(7.22173270377278e-005dB,-1.51198853790290e-002°)
1.16949939101987e+005	(7.39232350918909e-005dB,-1.52597888520359e-002°)
1.18032063565173e+005	(7.56608586788647e-005dB,-1.54009868610297e-002°)
1.19124200802738e+005	(7.74307874432459e-005dB,-1.55434913849315e-002°)
1.20226443461742e+005	(7.92336219969556e-005dB,-1.56873145134825e-002°)
1.21338885046498e+005	(8.10699741197829e-005dB,-1.58324684483314e-002°)
1.22461619926505e+005	(8.29404669676432e-005dB,-1.59789655040394e-002°)
1.23594743344451e+005	(8.48457352673338e-005dB,-1.61268181091333e-002°)
1.24738351424295e+005	(8.67864255595046e-005dB,-1.62760388071665e-002°)
1.25892541179417e+005	(8.87631964126973e-005dB,-1.64266402577798e-002°)
1.27057410520854e+005	(9.07767186258118e-005dB,-1.65786352377684e-002°)
1.28233058265602e+005	(9.28276754730003e-005dB,-1.67320366421824e-002°)
1.29419584144999e+005	(9.49167629389173e-005dB,-1.68868574853984e-002°)
1.30617088813185e+005	(9.70446899327528e-005dB,-1.70431109022596e-002°)
1.31825673855641e+005	(9.92121785639791e-005dB,-1.72008101491582e-002°)
1.33045441797810e+005	(1.01419964352524e-004dB,-1.73599686051644e-002°)
1.34276496113787e+005	(1.03668796498727e-004dB,-1.75205997731928e-002°)
1.35518941235104e+005	(1.05959438134012e-004dB,-1.76827172811136e-002°)
1.36772882559585e+005	(1.08292666573481e-004dB,-1.78463348829252e-002°)
1.38038426460289e+005	(1.10669273589721e-004dB,-1.80114664599048e-002°)
1.39315680294531e+005	(1.13090065676975e-004dB,-1.81781260218336e-002°)
1.40604752412992e+005	(1.15555864317223e-004dB,-1.83463277081312e-002°)
1.41905752168910e+005	(1.18067506269421e-004dB,-1.85160857890898e-002°)
1.43218789927355e+005	(1.20625843851011e-004dB,-1.86874146670656e-002°)
1.44543977074593e+005	(1.23231745227147e-004dB,-1.88603288777339e-002°)
1.45881426027535e+005	(1.25886094701849e-004dB,-1.90348430912830e-002°)
1.47231250243272e+005	(1.28589793018796e-004dB,-1.92109721136820e-002°)
1.48593564228701e+005	(1.31343757677543e-004dB,-1.93887308879315e-002°)
1.49968483550238e+005	(1.34148923226593e-004dB,-1.95681344953565e-002°)
1.51356124843621e+005	(1.37006241593113e-004dB,-1.97491981568509e-002°)
1.52756605823808e+005	(1.39916682406855e-004dB,-1.99319372341725e-002°)
1.54170045294957e+005	(1.42881233326009e-004dB,-2.01163672312978e-002°)
1.55596563160508e+005	(1.45900900361116e-004dB,-2.03025037956637e-002°)
1.57036280433356e+005	(1.48976708237556e-004dB,-2.04903627195602e-002°)
1.58489319246112e+005	(1.52109700732963e-004dB,-2.06799599414402e-002°)
1.59955802861468e+005	(1.55300941028122e-004dB,-2.08713115472784e-002°)
1.61435855682649e+005	(1.58551512071385e-004dB,-2.10644337719430e-002°)
1.62929603263973e+005	(1.61862516944988e-004dB,-2.12593430005604e-002°)
1.64437172321494e+005	(1.65235079250667e-004dB,-2.14560557699230e-002°)
1.65958690743757e+005	(1.68670343468263e-004dB,-2.16545887698950e-002°)
1.67494287602645e+005	(1.72169475358676e-004dB,-2.18549588448091e-002°)
1.69044093164327e+005	(1.75733662368751e-004dB,-2.20571829949283e-002°)
1.70608238900313e+005	(1.79364114013012e-004dB,-2.22612783778507e-002°)
1.72186857498602e+005	(1.83062062295891e-004dB,-2.24672623100057e-002°)
1.73780082874939e+005	(1.86828762128164e-004dB,-2.26751522681158e-002°)
1.75388050184177e+005	(1.90665491760747e-004dB,-2.28849658906573e-002°)
1.77010895831743e+005	(1.94573553203049e-004dB,-2.30967209793928e-002°)
1.78648757485206e+005	(1.98554272674105e-004dB,-2.33104355008463e-002°)
1.80301774085958e+005	(2.02609001055643e-004dB,-2.35261275878589e-002°)
1.81970085860999e+005	(2.06739114337416e-004dB,-2.37438155411491e-002°)
1.83653834334836e+005	(2.10946014108820e-004dB,-2.39635178307932e-002°)
1.85353162341482e+005	(2.15231128002294e-004dB,-2.41852530978728e-002°)
1.87068214036581e+005	(2.19595910211921e-004dB,-2.44090401560026e-002°)
1.88799134909631e+005	(2.24041841952241e-004dB,-2.46348979929830e-002°)
1.90546071796326e+005	(2.28570431992266e-004dB,-2.48628457723737e-002°)
1.92309172891017e+005	(2.33183217147063e-004dB,-2.50929028351223e-002°)
1.94088587759279e+005	(2.37881762805973e-004dB,-2.53250887012322e-002°)
1.95884467350600e+005	(2.42667663474312e-004dB,-2.55594230713875e-002°)
1.97696964011187e+005	(2.47542543291934e-004dB,-2.57959258286904e-002°)
1.99526231496889e+005	(2.52508056603844e-004dB,-2.60346170402568e-002°)
2.01372424986240e+005	(2.57565888517310e-004dB,-2.62755169589972e-002°)
2.03235701093624e+005	(2.62717755460891e-004dB,-2.65186460253393e-002°)
2.05116217882558e+005	(2.67965405793594e-004dB,-2.67640248689000e-002°)
2.07014134879106e+005	(2.73310620375458e-004dB,-2.70116743103100e-002°)
2.08929613085406e+005	(2.78755213178616e-004dB,-2.72616153629335e-002°)
2.10862814993331e+005	(2.84301031896426e-004dB,-2.75138692346872e-002°)
2.12813904598273e+005	(2.89949958595012e-004dB,-2.77684573298332e-002°)
2.14783047413055e+005	(2.95703910326230e-004dB,-2.80254012507757e-002°)
2.16770410481971e+005	(3.01564839788825e-004dB,-2.82847227999563e-002°)
2.18776162394957e+005	(3.07534735978007e-004dB,-2.85464439816321e-002°)
2.20800473301892e+005	(3.13615624894809e-004dB,-2.88105870038274e-002°)
2.22843514927032e+005	(3.19809570201412e-004dB,-2.90771742801202e-002°)
2.24905460583580e+005	(3.26118673924686e-004dB,-2.93462284316669e-002°)
2.26986485188384e+005	(3.32545077186705e-004dB,-2.96177722890315e-002°)
2.29086765276779e+005	(3.39090960919826e-004dB,-2.98918288941812e-002°)
2.31206479017561e+005	(3.45758546608743e-004dB,-3.01684215024065e-002°)
2.33345806228102e+005	(3.52550097049887e-004dB,-3.04475735843603e-002°)
2.35504928389603e+005	(3.59467917101162e-004dB,-3.07293088279583e-002°)
2.37684028662490e+005	(3.66514354489521e-004dB,-3.10136511404863e-002°)
2.39883291901951e+005	(3.73691800605025e-004dB,-3.13006246506015e-002°)
2.42102904673620e+005	(3.81002691283302e-004dB,-3.15902537103593e-002°)
2.44343055269399e+005	(3.88449507668996e-004dB,-3.18825628973214e-002°)
2.46603933723436e+005	(3.96034777038691e-004dB,-3.21775770166319e-002°)
2.48885731828241e+005	(4.03761073660448e-004dB,-3.24753211031183e-002°)
2.51188643150960e+005	(4.11631019680330e-004dB,-3.27758204234425e-002°)
2.53512863049793e+005	(4.19647285991539e-004dB,-3.30791004782414e-002°)
2.55858588690567e+005	(4.27812593151741e-004dB,-3.33851870042802e-002°)
2.58226019063462e+005	(4.36129712321589e-004dB,-3.36941059766803e-002°)
2.60615354999892e+005	(4.44601466178132e-004dB,-3.40058836110775e-002°)
2.63026799189541e+005	(4.53230729887997e-004dB,-3.43205463659217e-002°)
2.65460556197557e+005	(4.62020432094032e-004dB,-3.46381209446654e-002°)
2.67916832481906e+005	(4.70973555884563e-004dB,-3.49586342980680e-002°)
2.70395836410887e+005	(4.80093139826270e-004dB,-3.52821136264748e-002°)
2.72897778280807e+005	(4.89382278983521e-004dB,-3.56085863821836e-002°)
2.75422870333820e+005	(4.98844125985888e-004dB,-3.59380802716738e-002°)
2.77971326775932e+005	(5.08481892082135e-004dB,-3.62706232580829e-002°)
2.80543363795174e+005	(5.18298848228877e-004dB,-3.66062435635418e-002°)
2.83139199579941e+005	(5.28298326223558e-004dB,-3.69449696715188e-002°)
2.85759054337498e+005	(5.38483719808468e-004dB,-3.72868303293791e-002°)
2.88403150312664e+005	(5.48858485846069e-004dB,-3.76318545506760e-002°)
2.91071711806664e+005	(5.59426145476924e-004dB,-3.79800716177554e-002°)
2.93764965196156e+005	(5.70190285318086e-004dB,-3.83315110841824e-002°)
2.96483138952438e+005	(5.81154558694220e-004dB,-3.86862027772607e-002°)
2.99226463660822e+005	(5.92322686855186e-004dB,-3.90441768005933e-002°)
3.01995172040205e+005	(6.03698460264919e-004dB,-3.94054635366355e-002°)
3.04789498962802e+005	(6.15285739870987e-004dB,-3.97700936492938e-002°)
3.07609681474075e+005	(6.27088458418439e-004dB,-4.01380980865307e-002°)
3.10455958812839e+005	(6.39110621802178e-004dB,-4.05095080829871e-002°)
3.13328572431562e+005	(6.51356310388420e-004dB,-4.08843551627015e-002°)
3.16227766016842e+005	(6.63829680451802e-004dB,-4.12626711417143e-002°)
3.19153785510080e+005	(6.76534965548793e-004dB,-4.16444881308478e-002°)
3.22106879128348e+005	(6.89476477966249e-004dB,-4.20298385384158e-002°)
3.25087297385439e+005	(7.02658610191123e-004dB,-4.24187550729915e-002°)
3.28095293113123e+005	(7.16085836399387e-004dB,-4.28112707461867e-002°)
3.31131121482595e+005	(7.29762713973813e-004dB,-4.32074188754843e-002°)
3.34195040026119e+005	(7.43693885048679e-004dB,-4.36072330870519e-002°)
3.37287308658873e+005	(7.57884078098760e-004dB,-4.40107473186698e-002°)
3.40408189701005e+005	(7.72338109535947e-004dB,-4.44179958225483e-002°)
3.43557947899879e+005	(7.87060885348215e-004dB,-4.48290131682832e-002°)
3.46736850452536e+005	(8.02057402750081e-004dB,-4.52438342458325e-002°)
3.49945167028362e+005	(8.17332751923606e-004dB,-4.56624942684714e-002°)
3.53183169791962e+005	(8.32892117695673e-004dB,-4.60850287757938e-002°)
3.56451133426249e+005	(8.48740781332803e-004dB,-4.65114736367080e-002°)
3.59749335155747e+005	(8.64884122316590e-004dB,-4.69418650526035e-002°)
3.63078054770106e+005	(8.81327620188464e-004dB,-4.73762395603166e-002°)
3.66437574647838e+005	(8.98076856400123e-004dB,-4.78146340353535e-002°)
3.69828179780271e+005	(9.15137516215938e-004dB,-4.82570856949733e-002°)
3.73250157795726e+005	(9.32515390632587e-004dB,-4.87036321013902e-002°)
3.76703798983914e+005	(9.50216378362225e-004dB,-4.91543111649732e-002°)
3.80189396320567e+005	(9.68246487819376e-004dB,-4.96091611475103e-002°)
3.83707245492284e+005	(9.86611839182915e-004dB,-5.00682206654611e-002°)
3.87257644921623e+005	(1.00531866646370e-003dB,-5.05315286931937e-002°)
3.90840895792408e+005	(1.02437331961257e-003dB,-5.09991245664550e-002°)
3.94457302075284e+005	(1.04378226670534e-003dB,-5.14710479855990e-002°)
3.98107170553503e+005	(1.06355209611220e-003dB,-5.19473390190431e-002°)
4.01790810848946e+005	(1.08368951875185e-003dB,-5.24280381067003e-002°)
4.05508535448390e+005	(1.10420137037631e-003dB,-5.29131860633947e-002°)
4.09260659730017e+005	(1.12509461387485e-003dB,-5.34028240824037e-002°)
4.13047501990168e+005	(1.14637634166259e-003dB,-5.38969937389363e-002°)
4.16869383470342e+005	(1.16805377807281e-003dB,-5.43957369937079e-002°)
4.20726628384451e+005	(1.19013428182425e-003dB,-5.48990961965240e-002°)
4.24619563946319e+005	(1.21262534851914e-003dB,-5.54071140899121e-002°)
4.28548520397446e+005	(1.23553461317948e-003dB,-5.59198338128102e-002°)
4.32513831035015e+005	(1.25886985285844e-003dB,-5.64372989041820e-002°)
4.36515832240173e+005	(1.28263898928816e-003dB,-5.69595533067624e-002°)
4.40554863506560e+005	(1.30685009153498e-003dB,-5.74866413709492e-002°)
4.44631267469116e+005	(1.33151137879530e-003dB,-5.80186078583686e-002°)
4.48745389933139e+005	(1.35663122314099e-003dB,-5.85554979459412e-002°)
4.52897579903628e+005	(1.38221815240540e-003dB,-5.90973572295924e-002°)
4.57088189614882e+005	(1.40828085305746e-003dB,-5.96442317282116e-002°)
4.61317574560387e+005	(1.43482817315273e-003dB,-6.01961678876252e-002°)
4.65586093522967e+005	(1.46186912536320e-003dB,-6.07532125845280e-002°)
4.69894108605223e+005	(1.48941289001642e-003dB,-6.13154131305525e-002°)
4.74241985260252e+005	(1.51746881824236e-003dB,-6.18828172762678e-002°)
4.78630092322646e+005	(1.54604643513156e-003dB,-6.24554732153006e-002°)
4.83058802039781e+005	(1.57515544298350e-003dB,-6.30334295885118e-002°)
4.87528490103394e+005	(1.60480572460100e-003dB,-6.36167354880697e-002°)
4.92039535681459e+005	(1.63500734665948e-003dB,-6.42054404618079e-002°)
4.96592321450345e+005	(1.66577056311630e-003dB,-6.47995945172978e-002°)
5.01187233627281e+005	(1.69710581871618e-003dB,-6.53992481263040e-002°)
5.05824662003123e+005	(1.72902375252906e-003dB,-6.60044522290175e-002°)
5.10504999975415e+005	(1.76153520157619e-003dB,-6.66152582384845e-002°)
5.15228644581765e+005	(1.79465120449827e-003dB,-6.72317180449938e-002°)
5.19995996533525e+005	(1.82838300534849e-003dB,-6.78538840205281e-002°)
5.24807460249782e+005	(1.86274205737744e-003dB,-6.84818090233021e-002°)
5.29663443891667e+005	(1.89774002694478e-003dB,-6.91155464022718e-002°)
5.34564359396981e+005	(1.93338879749217e-003dB,-6.97551500017700e-002°)
5.39510622515137e+005	(1.96970047358508e-003dB,-7.04006741660418e-002°)
5.44502652842431e+005	(2.00668738502166e-003dB,-7.10521737440410e-002°)
5.49540873857634e+005	(2.04436209103546e-003dB,-7.17097040940314e-002°)
5.54625712957921e+005	(2.08273738457283e-003dB,-7.23733210884583e-002°)
5.59757601495120e+005	(2.12182629662766e-003dB,-7.30430811186742e-002°)
5.64936974812313e+005	(2.16164210070267e-003dB,-7.37190410998508e-002°)
5.70164272280758e+005	(2.20219831729908e-003dB,-7.44012584758438e-002°)
5.75439937337168e+005	(2.24350871854062e-003dB,-7.50897912241945e-002°)
5.80764417521323e+005	(2.28558733284113e-003dB,-7.57846978610386e-002°)
5.86138164514040e+005	(2.32844844969503e-003dB,-7.64860374462469e-002°)
5.91561634175485e+005	(2.37210662453438e-003dB,-7.71938695884601e-002°)
5.97035286583848e+005	(2.41657668368367e-003dB,-7.79082544502399e-002°)
6.02559586074369e+005	(2.46187372939861e-003dB,-7.86292527532767e-002°)
6.08135001278730e+005	(2.50801314503332e-003dB,-7.93569257836395e-002°)
6.13762005164806e+005	(2.55501060024331e-003dB,-8.00913353969899e-002°)
6.19441075076793e+005	(2.60288205634381e-003dB,-8.08325440240473e-002°)
6.25172692775698e+005	(2.65164377174045e-003dB,-8.15806146758813e-002°)
6.30957344480206e+005	(2.70131230746501e-003dB,-8.23356109494193e-002°)
6.36795520907928e+005	(2.75190453280096e-003dB,-8.30975970329113e-002°)
6.42687717317032e+005	(2.80343763105052e-003dB,-8.38666377114602e-002°)
6.48634433548251e+005	(2.85592910538367e-003dB,-8.46427983727179e-002°)
6.54636174067288e+005	(2.90939678478639e-003dB,-8.54261450124335e-002°)
6.60693448007609e+005	(2.96385883013298e-003dB,-8.62167442402498e-002°)
6.66806769213635e+005	(3.01933374039616e-003dB,-8.70146632854041e-002°)
6.72976656284331e+005	(3.07584035892530e-003dB,-8.78199700026269e-002°)
6.79203632617198e+005	(3.13339787987769e-003dB,-8.86327328779722e-002°)
6.85488226452676e+005	(3.19202585476029e-003dB,-8.94530210347305e-002°)
6.91830970918951e+005	(3.25174419907625e-003dB,-9.02809042395373e-002°)
6.98232404077186e+005	(3.31257319914153e-003dB,-9.11164529082758e-002°)
7.04693068967161e+005	(3.37453351895994e-003dB,-9.19597381123219e-002°)
7.11213513653344e+005	(3.43764620731061e-003dB,-9.28108315846365e-002°)
7.17794291271377e+005	(3.50193270488016e-003dB,-9.36698057260174e-002°)
7.24435960075005e+005	(3.56741485160353e-003dB,-9.45367336114142e-002°)
7.31139083483433e+005	(3.63411489408969e-003dB,-9.54116889962621e-002°)
7.37904230129116e+005	(3.70205549322122e-003dB,-9.62947463228776e-002°)
7.44731973906005e+005	(3.77125973187923e-003dB,-9.71859807270117e-002°)
7.51622894018221e+005	(3.84175112279175e-003dB,-9.80854680442904e-002°)
7.58577575029200e+005	(3.91355361659996e-003dB,-9.89932848169088e-002°)
7.65596606911273e+005	(3.98669160997633e-003dB,-9.99095083002531e-002°)
7.72680585095719e+005	(4.06118995398560e-003dB,-1.00834216469665e-001°)
7.79830110523276e+005	(4.13707396253986e-003dB,-1.01767488027205e-001°)
7.87045789695116e+005	(4.21436942104235e-003dB,-1.02709402408576e-001°)
7.94328234724299e+005	(4.29310259519073e-003dB,-1.03660039790031e-001°)
8.01678063387697e+005	(4.37330023993224e-003dB,-1.04619481095361e-001°)
8.09095899178400e+005	(4.45498960860715e-003dB,-1.05587808002992e-001°)
8.16582371358610e+005	(4.53819846223226e-003dB,-1.06565102953153e-001°)
8.24138115013021e+005	(4.62295507899950e-003dB,-1.07551449155050e-001°)
8.31763771102690e+005	(4.70928826390861e-003dB,-1.08546930594136e-001°)
8.39459986519416e+005	(4.79722735862052e-003dB,-1.09551632039558e-001°)
8.47227414140616e+005	(4.88680225147147e-003dB,-1.10565639051508e-001°)
8.55066712884703e+005	(4.97804338767688e-003dB,-1.11589037988702e-001°)
8.62978547766990e+005	(5.07098177972848e-003dB,-1.12621916016101e-001°)
8.70963589956101e+005	(5.16564901799817e-003dB,-1.13664361112390e-001°)
8.79022516830905e+005	(5.26207728152156e-003dB,-1.14716462077841e-001°)
8.87156012037981e+005	(5.36029934900328e-003dB,-1.15778308542075e-001°)
8.95364765549615e+005	(5.46034861001331e-003dB,-1.16849990971882e-001°)
9.03649473722322e+005	(5.56225907639518e-003dB,-1.17931600679344e-001°)
9.12010839355931e+005	(5.66606539389370e-003dB,-1.19023229829733e-001°)
9.20449571753193e+005	(5.77180285400788e-003dB,-1.20124971449689e-001°)
9.28966386779958e+005	(5.87950740604952e-003dB,-1.21236919435447e-001°)
9.37562006925902e+005	(5.98921566944396e-003dB,-1.22359168561104e-001°)
9.46237161365816e+005	(6.10096494624972e-003dB,-1.23491814486983e-001°)
9.54992586021459e+005	(6.21479323391219e-003dB,-1.24634953768104e-001°)
9.63829023623994e+005	(6.33073923828211e-003dB,-1.25788683862757e-001°)
9.72747223776988e+005	(6.44884238684846e-003dB,-1.26953103141053e-001°)
9.81747943020008e+005	(6.56914284222800e-003dB,-1.28128310893710e-001°)
9.90831944892792e+005	(6.69168151592284e-003dB,-1.29314407340839e-001°)
1.00000000000002e+006	(6.81650008231677e-003dB,-1.30511493640833e-001°)
1.00925288607671e+006	(6.94364099295664e-003dB,-1.31719671899342e-001°)
1.01859138805414e+006	(7.07314749108163e-003dB,-1.32939045178357e-001°)
1.02801629812650e+006	(7.20506362643128e-003dB,-1.34169717505396e-001°)
1.03752841581804e+006	(7.33943427034917e-003dB,-1.35411793882736e-001°)
1.04712854805093e+006	(7.47630513114350e-003dB,-1.36665380296789e-001°)
1.05681750921368e+006	(7.61572276976227e-003dB,-1.37930583727571e-001°)
1.06659612123028e+006	(7.75773461575161e-003dB,-1.39207512158188e-001°)
1.07646521362986e+006	(7.90238898351085e-003dB,-1.40496274584579e-001°)
1.08642562361709e+006	(8.04973508886678e-003dB,-1.41796981025152e-001°)
1.09647819614321e+006	(8.19982306594011e-003dB,-1.43109742530755e-001°)
1.10662378397769e+006	(8.35270398436912e-003dB,-1.44434671194537e-001°)
1.11686324778059e+006	(8.50842986680163e-003dB,-1.45771880161996e-001°)
1.12719745617554e+006	(8.66705370676274e-003dB,-1.47121483641245e-001°)
1.13762728582346e+006	(8.82862948685380e-003dB,-1.48483596913115e-001°)
1.14815362149691e+006	(8.99321219726860e-003dB,-1.49858336341688e-001°)
1.15877735615516e+006	(9.16085785469199e-003dB,-1.51245819384614e-001°)
1.16949939101990e+006	(9.33162352152269e-003dB,-1.52646164603846e-001°)
1.18032063565176e+006	(9.50556732550071e-003dB,-1.54059491676238e-001°)
1.19124200802741e+006	(9.68274847966206e-003dB,-1.55485921404430e-001°)
1.20226443461744e+006	(9.86322730269909e-003dB,-1.56925575727691e-001°)
1.21338885046501e+006	(1.00470652397087e-002dB,-1.58378577733027e-001°)
1.22461619926508e+006	(1.02343248832934e-002dB,-1.59845051666330e-001°)
